T3028 000:063.078   SEGGER J-Link V7.96b Log File
T3028 000:063.225   DLL Compiled: Mar 20 2024 16:53:15
T3028 000:063.250   Logging started @ 2024-08-11 07:41
T3028 000:063.273   Process: C:\Keil_v5\UV4\UV4.exe
T3028 000:063.299 - 63.297ms
T3028 000:063.327 JLINK_SetWarnOutHandler(...)
T3028 000:063.351 - 0.025ms
T3028 000:063.376 JLINK_OpenEx(...)
T3028 000:070.722   Firmware: J-Link OB-STM32F072-CortexM compiled Jan  7 2019 14:09:37
T3028 000:073.588   Firmware: J-Link OB-STM32F072-CortexM compiled Jan  7 2019 14:09:37
T3028 000:073.774   Decompressing FW timestamp took 125 us
T3028 000:080.516   Hardware: V1.00
T3028 000:080.570   S/N: 20240411
T3028 000:080.614   OEM: SEGGER
T3028 000:080.657   Feature(s): GDB, RDI, FlashBP, FlashDL, JFlash, RDDI
T3028 000:083.212   Bootloader: (Could not read)
T3028 000:097.572   TELNET listener socket opened on port 19021
T3028 000:097.864   WEBSRV WEBSRV_Init(): Starting webserver thread(s)
T3028 000:098.758   WEBSRV Failed to put socket into listener state (port 19080)
T3028 000:098.887   WEBSRV Webserver running on local port 19081
T3028 000:099.080   Looking for J-Link GUI Server exe at: C:\Keil_v5\ARM\Segger\JLinkGUIServer.exe
T3028 000:099.239   Looking for J-Link GUI Server exe at: C:\Program Files\SEGGER\JLink_V796b\JLinkGUIServer.exe
T3028 000:099.364   Forking J-Link GUI Server: C:\Program Files\SEGGER\JLink_V796b\JLinkGUIServer.exe
T3028 000:114.795   J-Link GUI Server info: "J-Link GUI server V7.66c "
T3028 000:114.934   J-Link GUI Server: Connection breakdown.
T3028 000:115.014 - 51.629ms returns "O.K."
T3028 000:115.070 JLINK_SetErrorOutHandler(...)
T3028 000:115.102 - 0.031ms
T3028 000:115.147 JLINK_ExecCommand("ProjectFile = "C:\Users\maoxi\Desktop\nRF52832\BLEproject\BLE_ADG725\ADG725_Slave_2020.4.1\nRF5_SDK_15.2.0_9412b96\examples\ble_peripheral\ble_acupoint\pca10040\s132\arm5_no_packs\JLinkSettings.ini"", ...). 
T3028 000:124.888   Ref file found at: C:\Keil_v5\ARM\Segger\JLinkDevices.ref
T3028 000:125.108   REF file references invalid XML file: C:\Program Files\SEGGER\JLink_V796b\JLinkDevices.xml
T3028 000:126.225 - 11.078ms returns 0x00
T3028 000:127.747 JLINK_ExecCommand("Device = nRF52832_xxAA", ...). 
T3028 000:131.480   Device "NRF52832_XXAA" selected.
T3028 000:131.943 - 4.161ms returns 0x00
T3028 000:131.974 JLINK_ExecCommand("DisableConnectionTimeout", ...). 
T3028 000:132.001 - 0.001ms returns 0x01
T3028 000:132.027 JLINK_GetHardwareVersion()
T3028 000:132.054 - 0.023ms returns 10000
T3028 000:132.080 JLINK_GetDLLVersion()
T3028 000:132.104 - 0.024ms returns 79602
T3028 000:132.129 JLINK_GetOEMString(...)
T3028 000:132.155 JLINK_GetFirmwareString(...)
T3028 000:132.179 - 0.024ms
T3028 000:139.001 JLINK_GetDLLVersion()
T3028 000:139.039 - 0.037ms returns 79602
T3028 000:139.064 JLINK_GetCompileDateTime()
T3028 000:139.088 - 0.023ms
T3028 000:141.179 JLINK_GetFirmwareString(...)
T3028 000:141.212 - 0.033ms
T3028 000:143.300 JLINK_GetHardwareVersion()
T3028 000:143.332 - 0.032ms returns 10000
T3028 000:145.359 JLINK_GetSN()
T3028 000:145.391 - 0.032ms returns 20240411
T3028 000:147.560 JLINK_GetOEMString(...)
T3028 000:151.954 JLINK_TIF_Select(JLINKARM_TIF_SWD)
T3028 000:154.289 - 2.334ms returns 0x00
T3028 000:154.349 JLINK_HasError()
T3028 000:154.390 JLINK_SetSpeed(5000)
T3028 000:155.106 - 0.717ms
T3028 000:155.164 JLINK_GetId()
T3028 000:164.050   InitTarget() start
T3028 000:164.102    J-Link Script File: Executing InitTarget()
T3028 000:169.747   InitTarget() end - Took 3.40ms
T3028 000:172.583   Found SW-DP with ID 0x2BA01477
T3028 000:174.278   Old FW that does not support reading DPIDR via DAP jobs
T3028 000:177.911   DPv0 detected
T3028 000:179.970   CoreSight SoC-400 or earlier
T3028 000:182.075   Scanning AP map to find all available APs
T3028 000:185.321   AP[2]: Stopped AP scan as end of AP map has been reached
T3028 000:187.427   AP[0]: AHB-AP (IDR: 0x24770011)
T3028 000:189.505   AP[1]: JTAG-AP (IDR: 0x02880000)
T3028 000:191.822   Iterating through AP map to find AHB-AP to use
T3028 000:196.118   AP[0]: Core found
T3028 000:198.331   AP[0]: AHB-AP ROM base: 0xE00FF000
T3028 000:201.012   CPUID register: 0x410FC241. Implementer code: 0x41 (ARM)
T3028 000:203.059   Found Cortex-M4 r0p1, Little endian.
T3028 000:203.464   -- Max. mem block: 0x000019E0
T3028 000:204.295   CPU_ReadMem(4 bytes @ 0xE000EDF0)
T3028 000:204.768   CPU_ReadMem(4 bytes @ 0xE0002000)
T3028 000:207.467   FPUnit: 6 code (BP) slots and 2 literal slots
T3028 000:207.524   CPU_ReadMem(4 bytes @ 0xE000EDFC)
T3028 000:208.008   CPU_ReadMem(4 bytes @ 0xE0001000)
T3028 000:208.507   CPU_WriteMem(4 bytes @ 0xE0001000)
T3028 000:209.014   CPU_ReadMem(4 bytes @ 0xE000ED88)
T3028 000:209.506   CPU_WriteMem(4 bytes @ 0xE000ED88)
T3028 000:210.027   CPU_ReadMem(4 bytes @ 0xE000ED88)
T3028 000:210.563   CPU_WriteMem(4 bytes @ 0xE000ED88)
T3028 000:213.253   CoreSight components:
T3028 000:215.370   ROMTbl[0] @ E00FF000
T3028 000:215.417   CPU_ReadMem(64 bytes @ 0xE00FF000)
T3028 000:216.479   CPU_ReadMem(32 bytes @ 0xE000EFE0)
T3028 000:219.595   [0][0]: E000E000 CID B105E00D PID 000BB00C SCS-M7
T3028 000:219.641   CPU_ReadMem(32 bytes @ 0xE0001FE0)
T3028 000:222.703   [0][1]: E0001000 CID B105E00D PID 003BB002 DWT
T3028 000:222.750   CPU_ReadMem(32 bytes @ 0xE0002FE0)
T3028 000:225.580   [0][2]: E0002000 CID B105E00D PID 002BB003 FPB
T3028 000:225.626   CPU_ReadMem(32 bytes @ 0xE0000FE0)
T3028 000:228.758   [0][3]: E0000000 CID B105E00D PID 003BB001 ITM
T3028 000:228.806   CPU_ReadMem(32 bytes @ 0xE0040FE0)
T3028 000:231.790   [0][4]: E0040000 CID B105900D PID 000BB9A1 TPIU
T3028 000:231.837   CPU_ReadMem(32 bytes @ 0xE0041FE0)
T3028 000:234.624   [0][5]: E0041000 CID B105900D PID 000BB925 ETM
T3028 000:234.982 - 79.818ms returns 0x2BA01477
T3028 000:235.034 JLINK_GetDLLVersion()
T3028 000:235.060 - 0.025ms returns 79602
T3028 000:235.086 JLINK_CORE_GetFound()
T3028 000:235.111 - 0.025ms returns 0xE0000FF
T3028 000:235.137 JLINK_GetDebugInfo(0x100 = JLINKARM_ROM_TABLE_ADDR_INDEX)
T3028 000:235.161   Value=0xE00FF000
T3028 000:235.196 - 0.059ms returns 0
T3028 000:237.298 JLINK_GetDebugInfo(0x100 = JLINKARM_ROM_TABLE_ADDR_INDEX)
T3028 000:237.331   Value=0xE00FF000
T3028 000:237.367 - 0.068ms returns 0
T3028 000:237.392 JLINK_GetDebugInfo(0x101 = JLINKARM_DEBUG_INFO_ETM_ADDR_INDEX)
T3028 000:237.415   Value=0xE0041000
T3028 000:237.450 - 0.058ms returns 0
T3028 000:237.474 JLINK_GetDebugInfo(0x102 = JLINKARM_DEBUG_INFO_MTB_ADDR_INDEX)
T3028 000:237.497   Value=0x00000000
T3028 000:237.531 - 0.057ms returns 0
T3028 000:237.555 JLINK_GetDebugInfo(0x103 = JLINKARM_DEBUG_INFO_TPIU_ADDR_INDEX)
T3028 000:237.578   Value=0xE0040000
T3028 000:237.612 - 0.057ms returns 0
T3028 000:237.636 JLINK_GetDebugInfo(0x104 = JLINKARM_DEBUG_INFO_ITM_ADDR_INDEX)
T3028 000:237.659   Value=0xE0000000
T3028 000:237.693 - 0.057ms returns 0
T3028 000:237.717 JLINK_GetDebugInfo(0x105 = JLINKARM_DEBUG_INFO_DWT_ADDR_INDEX)
T3028 000:237.741   Value=0xE0001000
T3028 000:237.775 - 0.057ms returns 0
T3028 000:237.799 JLINK_GetDebugInfo(0x106 = JLINKARM_DEBUG_INFO_FPB_ADDR_INDEX)
T3028 000:237.823   Value=0xE0002000
T3028 000:237.857 - 0.058ms returns 0
T3028 000:237.881 JLINK_GetDebugInfo(0x107 = JLINKARM_DEBUG_INFO_NVIC_ADDR_INDEX)
T3028 000:237.904   Value=0xE000E000
T3028 000:237.938 - 0.057ms returns 0
T3028 000:237.962 JLINK_GetDebugInfo(0x10C = JLINKARM_DEBUG_INFO_DBG_ADDR_INDEX)
T3028 000:237.985   Value=0xE000EDF0
T3028 000:238.019 - 0.057ms returns 0
T3028 000:238.046 JLINK_ReadMemU32(0xE000EF40, 0x1 Items)
T3028 000:238.081   CPU_ReadMem(4 bytes @ 0xE000EF40)
T3028 000:238.684   Data:  21 00 11 10
T3028 000:238.727 - 0.681ms returns 1 (0x1)
T3028 000:238.768 JLINK_ReadMemU32(0xE000EF44, 0x1 Items)
T3028 000:238.796   CPU_ReadMem(4 bytes @ 0xE000EF44)
T3028 000:239.836   Data:  11 00 00 11
T3028 000:239.884 - 1.114ms returns 1 (0x1)
T3028 000:239.927 JLINK_ReadMemU32(0xE000ED00, 0x1 Items)
T3028 000:239.955   CPU_ReadMem(4 bytes @ 0xE000ED00)
T3028 000:240.984   Data:  41 C2 0F 41
T3028 000:241.027   Debug reg: CPUID
T3028 000:241.070 - 1.142ms returns 1 (0x1)
T3028 000:241.110 JLINK_HasError()
T3028 000:241.137 JLINK_SetResetType(JLINKARM_CM3_RESET_TYPE_NORMAL)
T3028 000:241.161 - 0.024ms returns JLINKARM_CM3_RESET_TYPE_NORMAL
T3028 000:241.185 JLINK_Reset()
T3028 000:242.658   CPU is running
T3028 000:242.702   CPU_WriteMem(4 bytes @ 0xE000EDF0)
T3028 000:243.210   CPU is running
T3028 000:243.263   CPU_WriteMem(4 bytes @ 0xE000EDFC)
T3028 000:245.962   Reset: Halt core after reset via DEMCR.VC_CORERESET.
T3028 000:248.592   Reset: Reset device via AIRCR.SYSRESETREQ.
T3028 000:248.637   CPU is running
T3028 000:248.673   CPU_WriteMem(4 bytes @ 0xE000ED0C)
T3028 000:303.060   CPU_ReadMem(4 bytes @ 0xE000EDF0)
T3028 000:303.577   CPU_ReadMem(4 bytes @ 0xE000EDF0)
T3028 000:308.678   CPU_WriteMem(4 bytes @ 0xE000EDFC)
T3028 000:314.842   CPU_ReadMem(4 bytes @ 0xE000EDF0)
T3028 000:319.955   CPU_WriteMem(4 bytes @ 0xE0002000)
T3028 000:320.554   CPU_ReadMem(4 bytes @ 0xE000EDFC)
T3028 000:321.075   CPU_ReadMem(4 bytes @ 0xE0001000)
T3028 000:321.670 - 80.483ms
T3028 000:321.753 JLINK_Halt()
T3028 000:321.798 - 0.044ms returns 0x00
T3028 000:321.839 JLINK_IsHalted()
T3028 000:321.876 - 0.036ms returns TRUE
T3028 000:321.910 JLINK_ReadMemU32(0xE000EDF0, 0x1 Items)
T3028 000:321.949   CPU_ReadMem(4 bytes @ 0xE000EDF0)
T3028 000:361.248   Data:  03 00 03 00
T3028 000:361.307   Debug reg: DHCSR
T3028 000:361.350 - 39.440ms returns 1 (0x1)
T3028 000:361.414 JLINK_WriteU32_64(0xE000EDF0, 0xA05F0003)
T3028 000:361.447   Debug reg: DHCSR
T3028 000:361.746   CPU_WriteMem(4 bytes @ 0xE000EDF0)
T3028 000:362.261 - 0.849ms returns 0 (0x00000000)
T3028 000:362.308 JLINK_WriteU32_64(0xE000EDFC, 0x01000000)
T3028 000:362.334   Debug reg: DEMCR
T3028 000:362.373   CPU_WriteMem(4 bytes @ 0xE000EDFC)
T3028 000:362.873 - 0.564ms returns 0 (0x00000000)
T3028 000:371.923 JLINK_GetHWStatus(...)
T3028 000:372.179 - 0.255ms returns 0
T3028 000:378.632 JLINK_GetNumBPUnits(Type = 0xFFFFFF00)
T3028 000:378.666 - 0.033ms returns 0x06
T3028 000:378.691 JLINK_GetNumBPUnits(Type = 0xF0)
T3028 000:378.715 - 0.023ms returns 0x2000
T3028 000:378.739 JLINK_GetNumWPUnits()
T3028 000:378.763 - 0.023ms returns 4
T3028 000:385.293 JLINK_GetSpeed()
T3028 000:385.327 - 0.033ms returns 2000
T3028 000:389.551 JLINK_ReadMemU32(0xE000E004, 0x1 Items)
T3028 000:389.591   CPU_ReadMem(4 bytes @ 0xE000E004)
T3028 000:390.083   Data:  01 00 00 00
T3028 000:390.127 - 0.576ms returns 1 (0x1)
T3028 000:390.168 JLINK_ReadMemU32(0xE000E004, 0x1 Items)
T3028 000:390.197   CPU_ReadMem(4 bytes @ 0xE000E004)
T3028 000:390.673   Data:  01 00 00 00
T3028 000:390.716 - 0.547ms returns 1 (0x1)
T3028 000:390.756 JLINK_WriteMem(0xE0001000, 0x1C Bytes, ...)
T3028 000:390.782   Data:  01 00 00 00 00 00 00 00 00 00 00 00 00 00 00 00 ...
T3028 000:390.822   CPU_WriteMem(28 bytes @ 0xE0001000)
T3028 000:391.584 - 0.827ms returns 0x1C
T3028 000:391.632 JLINK_ReadMem(0xE0001000, 0x1C Bytes, ...)
T3028 000:391.661   CPU_ReadMem(28 bytes @ 0xE0001000)
T3028 000:392.364   Data:  01 00 00 40 00 00 00 00 00 00 00 00 00 00 00 00 ...
T3028 000:392.406 - 0.774ms returns 0
T3028 000:392.449 JLINK_Halt()
T3028 000:392.475 - 0.025ms returns 0x00
T3028 000:392.499 JLINK_IsHalted()
T3028 000:392.524 - 0.024ms returns TRUE
T3028 000:395.388 JLINK_WriteMem(0x20000000, 0x5B8 Bytes, ...)
T3028 000:395.418   Data:  00 BE 0A E0 0D 78 2D 06 68 40 08 24 40 00 00 D3 ...
T3028 000:395.676   CPU_WriteMem(1464 bytes @ 0x20000000)
T3028 000:410.080 - 14.692ms returns 0x5B8
T3028 000:410.195 JLINK_HasError()
T3028 000:410.249 JLINK_WriteReg(R0, 0x00000000)
T3028 000:410.292 - 0.050ms returns 0
T3028 000:410.334 JLINK_WriteReg(R1, 0x03D09000)
T3028 000:410.373 - 0.039ms returns 0
T3028 000:410.413 JLINK_WriteReg(R2, 0x00000001)
T3028 000:410.452 - 0.038ms returns 0
T3028 000:410.493 JLINK_WriteReg(R3, 0x00000000)
T3028 000:410.532 - 0.038ms returns 0
T3028 000:410.571 JLINK_WriteReg(R4, 0x00000000)
T3028 000:410.610 - 0.038ms returns 0
T3028 000:410.654 JLINK_WriteReg(R5, 0x00000000)
T3028 000:410.696 - 0.042ms returns 0
T3028 000:410.736 JLINK_WriteReg(R6, 0x00000000)
T3028 000:410.774 - 0.038ms returns 0
T3028 000:410.814 JLINK_WriteReg(R7, 0x00000000)
T3028 000:410.855 - 0.040ms returns 0
T3028 000:410.902 JLINK_WriteReg(R8, 0x00000000)
T3028 000:410.944 - 0.042ms returns 0
T3028 000:410.986 JLINK_WriteReg(R9, 0x200005B4)
T3028 000:411.024 - 0.039ms returns 0
T3028 000:411.066 JLINK_WriteReg(R10, 0x00000000)
T3028 000:411.105 - 0.039ms returns 0
T3028 000:411.146 JLINK_WriteReg(R11, 0x00000000)
T3028 000:411.185 - 0.039ms returns 0
T3028 000:411.224 JLINK_WriteReg(R12, 0x00000000)
T3028 000:411.256 - 0.032ms returns 0
T3028 000:411.290 JLINK_WriteReg(R13 (SP), 0x20002000)
T3028 000:411.323 - 0.033ms returns 0
T3028 000:411.356 JLINK_WriteReg(R14, 0x20000001)
T3028 000:411.388 - 0.032ms returns 0
T3028 000:411.425 JLINK_WriteReg(R15 (PC), 0x20000020)
T3028 000:411.458 - 0.035ms returns 0
T3028 000:411.492 JLINK_WriteReg(XPSR, 0x01000000)
T3028 000:411.524 - 0.032ms returns 0
T3028 000:411.558 JLINK_WriteReg(MSP, 0x20002000)
T3028 000:411.590 - 0.032ms returns 0
T3028 000:411.625 JLINK_WriteReg(PSP, 0x20002000)
T3028 000:411.656 - 0.031ms returns 0
T3028 000:411.691 JLINK_WriteReg(CFBP, 0x00000000)
T3028 000:411.722 - 0.031ms returns 0
T3028 000:411.757 JLINK_SetBPEx(Addr = 0x20000000, Type = 0xFFFFFFF2)
T3028 000:411.794   CPU_ReadMem(2 bytes @ 0x20000000)
T3028 000:449.880 - 38.122ms returns 0x00000001
T3028 000:449.948 JLINK_Go()
T3028 000:449.984   CPU_WriteMem(2 bytes @ 0x20000000)
T3028 000:450.497   CPU_ReadMem(4 bytes @ 0xE0001000)
T3028 000:450.987   CPU_WriteMem(4 bytes @ 0xE0002008)
T3028 000:451.044   CPU_WriteMem(4 bytes @ 0xE000200C)
T3028 000:451.088   CPU_WriteMem(4 bytes @ 0xE0002010)
T3028 000:451.131   CPU_WriteMem(4 bytes @ 0xE0002014)
T3028 000:451.173   CPU_WriteMem(4 bytes @ 0xE0002018)
T3028 000:451.216   CPU_WriteMem(4 bytes @ 0xE000201C)
T3028 000:453.720   CPU_WriteMem(4 bytes @ 0xE0001004)
T3028 000:461.683   Memory map 'after startup completion point' is active
T3028 000:461.728 - 11.780ms
T3028 000:461.772 JLINK_IsHalted()
T3028 000:466.328   CPU_ReadMem(2 bytes @ 0x20000000)
T3028 000:466.866 - 5.091ms returns TRUE
T3028 000:466.962 JLINK_ReadReg(R15 (PC))
T3028 000:467.007 - 0.045ms returns 0x20000000
T3028 000:467.050 JLINK_ClrBPEx(BPHandle = 0x00000001)
T3028 000:467.089 - 0.039ms returns 0x00
T3028 000:467.132 JLINK_ReadReg(R0)
T3028 000:467.171 - 0.039ms returns 0x00000000
T3028 000:467.551 JLINK_HasError()
T3028 000:467.583 JLINK_WriteReg(R0, 0x00026000)
T3028 000:467.608 - 0.025ms returns 0
T3028 000:467.632 JLINK_WriteReg(R1, 0x00001000)
T3028 000:467.656 - 0.024ms returns 0
T3028 000:467.681 JLINK_WriteReg(R2, 0x000000FF)
T3028 000:467.704 - 0.023ms returns 0
T3028 000:467.728 JLINK_WriteReg(R3, 0x00000000)
T3028 000:467.752 - 0.023ms returns 0
T3028 000:467.776 JLINK_WriteReg(R4, 0x00000000)
T3028 000:467.799 - 0.023ms returns 0
T3028 000:467.823 JLINK_WriteReg(R5, 0x00000000)
T3028 000:467.846 - 0.023ms returns 0
T3028 000:467.871 JLINK_WriteReg(R6, 0x00000000)
T3028 000:467.895 - 0.023ms returns 0
T3028 000:467.919 JLINK_WriteReg(R7, 0x00000000)
T3028 000:467.942 - 0.023ms returns 0
T3028 000:467.966 JLINK_WriteReg(R8, 0x00000000)
T3028 000:467.989 - 0.023ms returns 0
T3028 000:468.013 JLINK_WriteReg(R9, 0x200005B4)
T3028 000:468.036 - 0.023ms returns 0
T3028 000:468.060 JLINK_WriteReg(R10, 0x00000000)
T3028 000:468.083 - 0.023ms returns 0
T3028 000:468.107 JLINK_WriteReg(R11, 0x00000000)
T3028 000:468.131 - 0.023ms returns 0
T3028 000:468.155 JLINK_WriteReg(R12, 0x00000000)
T3028 000:468.178 - 0.023ms returns 0
T3028 000:468.202 JLINK_WriteReg(R13 (SP), 0x20002000)
T3028 000:468.226 - 0.023ms returns 0
T3028 000:468.250 JLINK_WriteReg(R14, 0x20000001)
T3028 000:468.273 - 0.023ms returns 0
T3028 000:468.297 JLINK_WriteReg(R15 (PC), 0x20000288)
T3028 000:468.321 - 0.023ms returns 0
T3028 000:468.345 JLINK_WriteReg(XPSR, 0x01000000)
T3028 000:468.416 - 0.071ms returns 0
T3028 000:468.444 JLINK_WriteReg(MSP, 0x20002000)
T3028 000:468.468 - 0.023ms returns 0
T3028 000:468.492 JLINK_WriteReg(PSP, 0x20002000)
T3028 000:468.515 - 0.023ms returns 0
T3028 000:468.539 JLINK_WriteReg(CFBP, 0x00000000)
T3028 000:468.563 - 0.023ms returns 0
T3028 000:468.587 JLINK_SetBPEx(Addr = 0x20000000, Type = 0xFFFFFFF2)
T3028 000:468.611 - 0.024ms returns 0x00000002
T3028 000:468.635 JLINK_Go()
T3028 000:468.664   CPU_ReadMem(4 bytes @ 0xE0001000)
T3028 000:473.550 - 4.913ms
T3028 000:473.628 JLINK_IsHalted()
T3028 000:478.285   CPU_ReadMem(2 bytes @ 0x20000000)
T3028 000:478.825 - 5.196ms returns TRUE
T3028 000:478.908 JLINK_ReadReg(R15 (PC))
T3028 000:478.960 - 0.052ms returns 0x20000000
T3028 000:479.001 JLINK_ClrBPEx(BPHandle = 0x00000002)
T3028 000:479.042 - 0.040ms returns 0x00
T3028 000:479.083 JLINK_ReadReg(R0)
T3028 000:479.122 - 0.039ms returns 0x00000001
T3028 000:479.164 JLINK_HasError()
T3028 000:479.205 JLINK_WriteReg(R0, 0x00026000)
T3028 000:479.245 - 0.040ms returns 0
T3028 000:479.286 JLINK_WriteReg(R1, 0x00001000)
T3028 000:479.320 - 0.034ms returns 0
T3028 000:479.353 JLINK_WriteReg(R2, 0x000000FF)
T3028 000:479.385 - 0.031ms returns 0
T3028 000:479.418 JLINK_WriteReg(R3, 0x00000000)
T3028 000:479.450 - 0.032ms returns 0
T3028 000:479.483 JLINK_WriteReg(R4, 0x00000000)
T3028 000:479.515 - 0.031ms returns 0
T3028 000:479.548 JLINK_WriteReg(R5, 0x00000000)
T3028 000:479.579 - 0.031ms returns 0
T3028 000:479.612 JLINK_WriteReg(R6, 0x00000000)
T3028 000:479.644 - 0.031ms returns 0
T3028 000:479.677 JLINK_WriteReg(R7, 0x00000000)
T3028 000:479.709 - 0.032ms returns 0
T3028 000:479.742 JLINK_WriteReg(R8, 0x00000000)
T3028 000:479.775 - 0.033ms returns 0
T3028 000:479.809 JLINK_WriteReg(R9, 0x200005B4)
T3028 000:479.841 - 0.032ms returns 0
T3028 000:479.877 JLINK_WriteReg(R10, 0x00000000)
T3028 000:479.921 - 0.043ms returns 0
T3028 000:479.964 JLINK_WriteReg(R11, 0x00000000)
T3028 000:479.997 - 0.032ms returns 0
T3028 000:480.030 JLINK_WriteReg(R12, 0x00000000)
T3028 000:480.062 - 0.032ms returns 0
T3028 000:480.095 JLINK_WriteReg(R13 (SP), 0x20002000)
T3028 000:480.127 - 0.032ms returns 0
T3028 000:480.160 JLINK_WriteReg(R14, 0x20000001)
T3028 000:480.192 - 0.031ms returns 0
T3028 000:480.225 JLINK_WriteReg(R15 (PC), 0x200000D4)
T3028 000:480.260 - 0.035ms returns 0
T3028 000:480.293 JLINK_WriteReg(XPSR, 0x01000000)
T3028 000:480.325 - 0.032ms returns 0
T3028 000:480.358 JLINK_WriteReg(MSP, 0x20002000)
T3028 000:480.390 - 0.032ms returns 0
T3028 000:480.423 JLINK_WriteReg(PSP, 0x20002000)
T3028 000:480.454 - 0.031ms returns 0
T3028 000:480.487 JLINK_WriteReg(CFBP, 0x00000000)
T3028 000:480.519 - 0.032ms returns 0
T3028 000:480.553 JLINK_SetBPEx(Addr = 0x20000000, Type = 0xFFFFFFF2)
T3028 000:480.586 - 0.033ms returns 0x00000003
T3028 000:480.618 JLINK_Go()
T3028 000:480.657   CPU_ReadMem(4 bytes @ 0xE0001000)
T3028 000:485.581 - 4.962ms
T3028 000:485.659 JLINK_IsHalted()
T3028 000:486.197 - 0.537ms returns FALSE
T3028 000:486.275 JLINK_HasError()
T3028 000:498.883 JLINK_IsHalted()
T3028 000:503.498   CPU_ReadMem(2 bytes @ 0x20000000)
T3028 000:504.043 - 5.160ms returns TRUE
T3028 000:504.132 JLINK_ReadReg(R15 (PC))
T3028 000:504.178 - 0.045ms returns 0x20000000
T3028 000:504.219 JLINK_ClrBPEx(BPHandle = 0x00000003)
T3028 000:504.259 - 0.040ms returns 0x00
T3028 000:504.300 JLINK_ReadReg(R0)
T3028 000:504.341 - 0.040ms returns 0x00000000
T3028 000:505.852 JLINK_HasError()
T3028 000:505.915 JLINK_WriteReg(R0, 0x00027000)
T3028 000:505.959 - 0.043ms returns 0
T3028 000:506.000 JLINK_WriteReg(R1, 0x00001000)
T3028 000:506.040 - 0.040ms returns 0
T3028 000:506.081 JLINK_WriteReg(R2, 0x000000FF)
T3028 000:506.120 - 0.039ms returns 0
T3028 000:506.161 JLINK_WriteReg(R3, 0x00000000)
T3028 000:506.200 - 0.039ms returns 0
T3028 000:506.241 JLINK_WriteReg(R4, 0x00000000)
T3028 000:506.280 - 0.039ms returns 0
T3028 000:506.321 JLINK_WriteReg(R5, 0x00000000)
T3028 000:506.357 - 0.036ms returns 0
T3028 000:506.393 JLINK_WriteReg(R6, 0x00000000)
T3028 000:506.425 - 0.032ms returns 0
T3028 000:506.458 JLINK_WriteReg(R7, 0x00000000)
T3028 000:506.490 - 0.031ms returns 0
T3028 000:506.523 JLINK_WriteReg(R8, 0x00000000)
T3028 000:506.554 - 0.031ms returns 0
T3028 000:506.587 JLINK_WriteReg(R9, 0x200005B4)
T3028 000:506.619 - 0.031ms returns 0
T3028 000:506.652 JLINK_WriteReg(R10, 0x00000000)
T3028 000:506.684 - 0.032ms returns 0
T3028 000:506.717 JLINK_WriteReg(R11, 0x00000000)
T3028 000:506.749 - 0.032ms returns 0
T3028 000:506.782 JLINK_WriteReg(R12, 0x00000000)
T3028 000:506.814 - 0.032ms returns 0
T3028 000:506.847 JLINK_WriteReg(R13 (SP), 0x20002000)
T3028 000:506.880 - 0.033ms returns 0
T3028 000:506.913 JLINK_WriteReg(R14, 0x20000001)
T3028 000:506.945 - 0.032ms returns 0
T3028 000:506.978 JLINK_WriteReg(R15 (PC), 0x20000288)
T3028 000:507.010 - 0.032ms returns 0
T3028 000:507.043 JLINK_WriteReg(XPSR, 0x01000000)
T3028 000:507.075 - 0.031ms returns 0
T3028 000:507.108 JLINK_WriteReg(MSP, 0x20002000)
T3028 000:507.140 - 0.032ms returns 0
T3028 000:507.173 JLINK_WriteReg(PSP, 0x20002000)
T3028 000:507.204 - 0.031ms returns 0
T3028 000:507.237 JLINK_WriteReg(CFBP, 0x00000000)
T3028 000:507.269 - 0.031ms returns 0
T3028 000:507.302 JLINK_SetBPEx(Addr = 0x20000000, Type = 0xFFFFFFF2)
T3028 000:507.335 - 0.033ms returns 0x00000004
T3028 000:507.368 JLINK_Go()
T3028 000:507.408   CPU_ReadMem(4 bytes @ 0xE0001000)
T3028 000:549.059 - 41.690ms
T3028 000:549.120 JLINK_IsHalted()
T3028 000:553.603   CPU_ReadMem(2 bytes @ 0x20000000)
T3028 000:554.200 - 5.078ms returns TRUE
T3028 000:554.291 JLINK_ReadReg(R15 (PC))
T3028 000:554.340 - 0.048ms returns 0x20000000
T3028 000:554.384 JLINK_ClrBPEx(BPHandle = 0x00000004)
T3028 000:554.425 - 0.041ms returns 0x00
T3028 000:554.467 JLINK_ReadReg(R0)
T3028 000:554.510 - 0.042ms returns 0x00000001
T3028 000:554.541 JLINK_HasError()
T3028 000:554.573 JLINK_WriteReg(R0, 0x00027000)
T3028 000:554.610 - 0.037ms returns 0
T3028 000:554.644 JLINK_WriteReg(R1, 0x00001000)
T3028 000:554.675 - 0.031ms returns 0
T3028 000:554.709 JLINK_WriteReg(R2, 0x000000FF)
T3028 000:554.742 - 0.032ms returns 0
T3028 000:554.775 JLINK_WriteReg(R3, 0x00000000)
T3028 000:554.807 - 0.031ms returns 0
T3028 000:554.841 JLINK_WriteReg(R4, 0x00000000)
T3028 000:554.873 - 0.032ms returns 0
T3028 000:554.910 JLINK_WriteReg(R5, 0x00000000)
T3028 000:554.942 - 0.032ms returns 0
T3028 000:554.977 JLINK_WriteReg(R6, 0x00000000)
T3028 000:555.009 - 0.032ms returns 0
T3028 000:555.045 JLINK_WriteReg(R7, 0x00000000)
T3028 000:555.077 - 0.032ms returns 0
T3028 000:555.112 JLINK_WriteReg(R8, 0x00000000)
T3028 000:555.144 - 0.032ms returns 0
T3028 000:555.179 JLINK_WriteReg(R9, 0x200005B4)
T3028 000:555.211 - 0.032ms returns 0
T3028 000:555.246 JLINK_WriteReg(R10, 0x00000000)
T3028 000:555.278 - 0.032ms returns 0
T3028 000:555.314 JLINK_WriteReg(R11, 0x00000000)
T3028 000:555.347 - 0.033ms returns 0
T3028 000:555.382 JLINK_WriteReg(R12, 0x00000000)
T3028 000:555.416 - 0.033ms returns 0
T3028 000:555.451 JLINK_WriteReg(R13 (SP), 0x20002000)
T3028 000:555.481 - 0.031ms returns 0
T3028 000:555.511 JLINK_WriteReg(R14, 0x20000001)
T3028 000:555.539 - 0.027ms returns 0
T3028 000:555.574 JLINK_WriteReg(R15 (PC), 0x200000D4)
T3028 000:555.597 - 0.023ms returns 0
T3028 000:555.623 JLINK_WriteReg(XPSR, 0x01000000)
T3028 000:555.648 - 0.024ms returns 0
T3028 000:555.673 JLINK_WriteReg(MSP, 0x20002000)
T3028 000:555.697 - 0.023ms returns 0
T3028 000:555.722 JLINK_WriteReg(PSP, 0x20002000)
T3028 000:555.746 - 0.023ms returns 0
T3028 000:555.771 JLINK_WriteReg(CFBP, 0x00000000)
T3028 000:555.794 - 0.023ms returns 0
T3028 000:555.820 JLINK_SetBPEx(Addr = 0x20000000, Type = 0xFFFFFFF2)
T3028 000:555.844 - 0.024ms returns 0x00000005
T3028 000:555.869 JLINK_Go()
T3028 000:555.899   CPU_ReadMem(4 bytes @ 0xE0001000)
T3028 000:560.736 - 4.866ms
T3028 000:560.820 JLINK_IsHalted()
T3028 000:561.367 - 0.546ms returns FALSE
T3028 000:561.452 JLINK_HasError()
T3028 000:565.899 JLINK_IsHalted()
T3028 000:570.482   CPU_ReadMem(2 bytes @ 0x20000000)
T3028 000:570.987 - 5.087ms returns TRUE
T3028 000:571.045 JLINK_ReadReg(R15 (PC))
T3028 000:571.079 - 0.034ms returns 0x20000000
T3028 000:571.110 JLINK_ClrBPEx(BPHandle = 0x00000005)
T3028 000:571.139 - 0.029ms returns 0x00
T3028 000:571.170 JLINK_ReadReg(R0)
T3028 000:571.199 - 0.029ms returns 0x00000000
T3028 000:571.643 JLINK_HasError()
T3028 000:571.676 JLINK_WriteReg(R0, 0x00028000)
T3028 000:571.702 - 0.025ms returns 0
T3028 000:571.726 JLINK_WriteReg(R1, 0x00001000)
T3028 000:571.750 - 0.024ms returns 0
T3028 000:571.775 JLINK_WriteReg(R2, 0x000000FF)
T3028 000:571.799 - 0.023ms returns 0
T3028 000:571.823 JLINK_WriteReg(R3, 0x00000000)
T3028 000:571.847 - 0.023ms returns 0
T3028 000:571.871 JLINK_WriteReg(R4, 0x00000000)
T3028 000:571.896 - 0.025ms returns 0
T3028 000:571.921 JLINK_WriteReg(R5, 0x00000000)
T3028 000:571.944 - 0.023ms returns 0
T3028 000:571.969 JLINK_WriteReg(R6, 0x00000000)
T3028 000:571.993 - 0.023ms returns 0
T3028 000:572.019 JLINK_WriteReg(R7, 0x00000000)
T3028 000:572.043 - 0.023ms returns 0
T3028 000:572.068 JLINK_WriteReg(R8, 0x00000000)
T3028 000:572.092 - 0.023ms returns 0
T3028 000:572.116 JLINK_WriteReg(R9, 0x200005B4)
T3028 000:572.139 - 0.023ms returns 0
T3028 000:572.164 JLINK_WriteReg(R10, 0x00000000)
T3028 000:572.187 - 0.023ms returns 0
T3028 000:572.212 JLINK_WriteReg(R11, 0x00000000)
T3028 000:572.235 - 0.023ms returns 0
T3028 000:572.260 JLINK_WriteReg(R12, 0x00000000)
T3028 000:572.283 - 0.023ms returns 0
T3028 000:572.308 JLINK_WriteReg(R13 (SP), 0x20002000)
T3028 000:572.332 - 0.024ms returns 0
T3028 000:572.356 JLINK_WriteReg(R14, 0x20000001)
T3028 000:572.380 - 0.023ms returns 0
T3028 000:572.404 JLINK_WriteReg(R15 (PC), 0x20000288)
T3028 000:572.427 - 0.023ms returns 0
T3028 000:572.452 JLINK_WriteReg(XPSR, 0x01000000)
T3028 000:572.476 - 0.023ms returns 0
T3028 000:572.500 JLINK_WriteReg(MSP, 0x20002000)
T3028 000:572.524 - 0.023ms returns 0
T3028 000:572.548 JLINK_WriteReg(PSP, 0x20002000)
T3028 000:572.572 - 0.023ms returns 0
T3028 000:572.597 JLINK_WriteReg(CFBP, 0x00000000)
T3028 000:572.620 - 0.023ms returns 0
T3028 000:572.645 JLINK_SetBPEx(Addr = 0x20000000, Type = 0xFFFFFFF2)
T3028 000:572.670 - 0.024ms returns 0x00000006
T3028 000:572.694 JLINK_Go()
T3028 000:572.725   CPU_ReadMem(4 bytes @ 0xE0001000)
T3028 000:577.560 - 4.865ms
T3028 000:577.623 JLINK_IsHalted()
T3028 000:582.117   CPU_ReadMem(2 bytes @ 0x20000000)
T3028 000:582.653 - 5.029ms returns TRUE
T3028 000:582.727 JLINK_ReadReg(R15 (PC))
T3028 000:582.769 - 0.041ms returns 0x20000000
T3028 000:582.808 JLINK_ClrBPEx(BPHandle = 0x00000006)
T3028 000:582.846 - 0.037ms returns 0x00
T3028 000:582.884 JLINK_ReadReg(R0)
T3028 000:582.935 - 0.049ms returns 0x00000001
T3028 000:582.978 JLINK_HasError()
T3028 000:583.017 JLINK_WriteReg(R0, 0x00028000)
T3028 000:583.054 - 0.037ms returns 0
T3028 000:583.092 JLINK_WriteReg(R1, 0x00001000)
T3028 000:583.129 - 0.036ms returns 0
T3028 000:583.167 JLINK_WriteReg(R2, 0x000000FF)
T3028 000:583.203 - 0.036ms returns 0
T3028 000:583.241 JLINK_WriteReg(R3, 0x00000000)
T3028 000:583.277 - 0.036ms returns 0
T3028 000:583.315 JLINK_WriteReg(R4, 0x00000000)
T3028 000:583.351 - 0.036ms returns 0
T3028 000:583.389 JLINK_WriteReg(R5, 0x00000000)
T3028 000:583.425 - 0.036ms returns 0
T3028 000:583.462 JLINK_WriteReg(R6, 0x00000000)
T3028 000:583.499 - 0.036ms returns 0
T3028 000:583.530 JLINK_WriteReg(R7, 0x00000000)
T3028 000:583.561 - 0.030ms returns 0
T3028 000:583.593 JLINK_WriteReg(R8, 0x00000000)
T3028 000:583.623 - 0.030ms returns 0
T3028 000:583.655 JLINK_WriteReg(R9, 0x200005B4)
T3028 000:583.685 - 0.030ms returns 0
T3028 000:583.719 JLINK_WriteReg(R10, 0x00000000)
T3028 000:583.750 - 0.030ms returns 0
T3028 000:583.782 JLINK_WriteReg(R11, 0x00000000)
T3028 000:583.812 - 0.030ms returns 0
T3028 000:583.844 JLINK_WriteReg(R12, 0x00000000)
T3028 000:583.874 - 0.030ms returns 0
T3028 000:583.918 JLINK_WriteReg(R13 (SP), 0x20002000)
T3028 000:583.949 - 0.031ms returns 0
T3028 000:583.981 JLINK_WriteReg(R14, 0x20000001)
T3028 000:584.012 - 0.030ms returns 0
T3028 000:584.043 JLINK_WriteReg(R15 (PC), 0x200000D4)
T3028 000:584.074 - 0.031ms returns 0
T3028 000:584.106 JLINK_WriteReg(XPSR, 0x01000000)
T3028 000:584.136 - 0.030ms returns 0
T3028 000:584.168 JLINK_WriteReg(MSP, 0x20002000)
T3028 000:584.198 - 0.030ms returns 0
T3028 000:584.230 JLINK_WriteReg(PSP, 0x20002000)
T3028 000:584.260 - 0.030ms returns 0
T3028 000:584.292 JLINK_WriteReg(CFBP, 0x00000000)
T3028 000:584.322 - 0.030ms returns 0
T3028 000:584.354 JLINK_SetBPEx(Addr = 0x20000000, Type = 0xFFFFFFF2)
T3028 000:584.386 - 0.031ms returns 0x00000007
T3028 000:584.417 JLINK_Go()
T3028 000:584.455   CPU_ReadMem(4 bytes @ 0xE0001000)
T3028 000:589.365 - 4.947ms
T3028 000:589.447 JLINK_IsHalted()
T3028 000:589.962 - 0.514ms returns FALSE
T3028 000:590.042 JLINK_HasError()
T3028 000:592.901 JLINK_IsHalted()
T3028 000:597.441   CPU_ReadMem(2 bytes @ 0x20000000)
T3028 000:597.978 - 5.076ms returns TRUE
T3028 000:598.056 JLINK_ReadReg(R15 (PC))
T3028 000:598.102 - 0.045ms returns 0x20000000
T3028 000:598.144 JLINK_ClrBPEx(BPHandle = 0x00000007)
T3028 000:598.185 - 0.040ms returns 0x00
T3028 000:598.226 JLINK_ReadReg(R0)
T3028 000:598.266 - 0.039ms returns 0x00000000
T3028 000:598.887 JLINK_HasError()
T3028 000:598.946 JLINK_WriteReg(R0, 0x00029000)
T3028 000:598.983 - 0.036ms returns 0
T3028 000:599.016 JLINK_WriteReg(R1, 0x00001000)
T3028 000:599.048 - 0.032ms returns 0
T3028 000:599.081 JLINK_WriteReg(R2, 0x000000FF)
T3028 000:599.113 - 0.032ms returns 0
T3028 000:599.146 JLINK_WriteReg(R3, 0x00000000)
T3028 000:599.178 - 0.032ms returns 0
T3028 000:599.211 JLINK_WriteReg(R4, 0x00000000)
T3028 000:599.243 - 0.031ms returns 0
T3028 000:599.276 JLINK_WriteReg(R5, 0x00000000)
T3028 000:599.308 - 0.031ms returns 0
T3028 000:599.341 JLINK_WriteReg(R6, 0x00000000)
T3028 000:599.372 - 0.031ms returns 0
T3028 000:599.405 JLINK_WriteReg(R7, 0x00000000)
T3028 000:599.437 - 0.031ms returns 0
T3028 000:599.469 JLINK_WriteReg(R8, 0x00000000)
T3028 000:599.501 - 0.031ms returns 0
T3028 000:599.534 JLINK_WriteReg(R9, 0x200005B4)
T3028 000:599.566 - 0.031ms returns 0
T3028 000:599.599 JLINK_WriteReg(R10, 0x00000000)
T3028 000:599.631 - 0.031ms returns 0
T3028 000:599.664 JLINK_WriteReg(R11, 0x00000000)
T3028 000:599.696 - 0.031ms returns 0
T3028 000:599.730 JLINK_WriteReg(R12, 0x00000000)
T3028 000:599.761 - 0.032ms returns 0
T3028 000:599.794 JLINK_WriteReg(R13 (SP), 0x20002000)
T3028 000:599.827 - 0.032ms returns 0
T3028 000:599.860 JLINK_WriteReg(R14, 0x20000001)
T3028 000:599.892 - 0.032ms returns 0
T3028 000:599.937 JLINK_WriteReg(R15 (PC), 0x20000288)
T3028 000:599.972 - 0.034ms returns 0
T3028 000:600.005 JLINK_WriteReg(XPSR, 0x01000000)
T3028 000:600.037 - 0.032ms returns 0
T3028 000:600.070 JLINK_WriteReg(MSP, 0x20002000)
T3028 000:600.102 - 0.032ms returns 0
T3028 000:600.135 JLINK_WriteReg(PSP, 0x20002000)
T3028 000:600.167 - 0.031ms returns 0
T3028 000:600.200 JLINK_WriteReg(CFBP, 0x00000000)
T3028 000:600.232 - 0.032ms returns 0
T3028 000:600.266 JLINK_SetBPEx(Addr = 0x20000000, Type = 0xFFFFFFF2)
T3028 000:600.299 - 0.033ms returns 0x00000008
T3028 000:600.332 JLINK_Go()
T3028 000:600.372   CPU_ReadMem(4 bytes @ 0xE0001000)
T3028 000:643.216 - 42.882ms
T3028 000:643.309 JLINK_IsHalted()
T3028 000:647.828   CPU_ReadMem(2 bytes @ 0x20000000)
T3028 000:648.309 - 4.999ms returns TRUE
T3028 000:648.357 JLINK_ReadReg(R15 (PC))
T3028 000:648.385 - 0.027ms returns 0x20000000
T3028 000:648.411 JLINK_ClrBPEx(BPHandle = 0x00000008)
T3028 000:648.435 - 0.024ms returns 0x00
T3028 000:648.461 JLINK_ReadReg(R0)
T3028 000:648.485 - 0.023ms returns 0x00000001
T3028 000:648.510 JLINK_HasError()
T3028 000:648.536 JLINK_WriteReg(R0, 0x00029000)
T3028 000:648.560 - 0.024ms returns 0
T3028 000:648.591 JLINK_WriteReg(R1, 0x00001000)
T3028 000:648.630 - 0.038ms returns 0
T3028 000:648.752 JLINK_WriteReg(R2, 0x000000FF)
T3028 000:648.797 - 0.045ms returns 0
T3028 000:648.838 JLINK_WriteReg(R3, 0x00000000)
T3028 000:648.877 - 0.038ms returns 0
T3028 000:648.920 JLINK_WriteReg(R4, 0x00000000)
T3028 000:648.960 - 0.039ms returns 0
T3028 000:649.001 JLINK_WriteReg(R5, 0x00000000)
T3028 000:649.039 - 0.038ms returns 0
T3028 000:649.080 JLINK_WriteReg(R6, 0x00000000)
T3028 000:649.119 - 0.039ms returns 0
T3028 000:649.160 JLINK_WriteReg(R7, 0x00000000)
T3028 000:649.199 - 0.039ms returns 0
T3028 000:649.241 JLINK_WriteReg(R8, 0x00000000)
T3028 000:649.279 - 0.039ms returns 0
T3028 000:649.320 JLINK_WriteReg(R9, 0x200005B4)
T3028 000:649.359 - 0.038ms returns 0
T3028 000:649.400 JLINK_WriteReg(R10, 0x00000000)
T3028 000:649.439 - 0.039ms returns 0
T3028 000:649.480 JLINK_WriteReg(R11, 0x00000000)
T3028 000:649.518 - 0.038ms returns 0
T3028 000:649.559 JLINK_WriteReg(R12, 0x00000000)
T3028 000:649.598 - 0.038ms returns 0
T3028 000:649.639 JLINK_WriteReg(R13 (SP), 0x20002000)
T3028 000:649.677 - 0.039ms returns 0
T3028 000:649.702 JLINK_WriteReg(R14, 0x20000001)
T3028 000:649.726 - 0.023ms returns 0
T3028 000:649.750 JLINK_WriteReg(R15 (PC), 0x200000D4)
T3028 000:649.774 - 0.023ms returns 0
T3028 000:649.798 JLINK_WriteReg(XPSR, 0x01000000)
T3028 000:649.822 - 0.023ms returns 0
T3028 000:649.846 JLINK_WriteReg(MSP, 0x20002000)
T3028 000:649.869 - 0.023ms returns 0
T3028 000:649.894 JLINK_WriteReg(PSP, 0x20002000)
T3028 000:649.918 - 0.024ms returns 0
T3028 000:649.943 JLINK_WriteReg(CFBP, 0x00000000)
T3028 000:649.967 - 0.023ms returns 0
T3028 000:649.992 JLINK_SetBPEx(Addr = 0x20000000, Type = 0xFFFFFFF2)
T3028 000:650.016 - 0.024ms returns 0x00000009
T3028 000:650.041 JLINK_Go()
T3028 000:650.070   CPU_ReadMem(4 bytes @ 0xE0001000)
T3028 000:654.869 - 4.827ms
T3028 000:654.951 JLINK_IsHalted()
T3028 000:655.465 - 0.513ms returns FALSE
T3028 000:655.542 JLINK_HasError()
T3028 000:660.916 JLINK_IsHalted()
T3028 000:665.418   CPU_ReadMem(2 bytes @ 0x20000000)
T3028 000:665.922 - 5.004ms returns TRUE
T3028 000:666.001 JLINK_ReadReg(R15 (PC))
T3028 000:666.045 - 0.044ms returns 0x20000000
T3028 000:666.086 JLINK_ClrBPEx(BPHandle = 0x00000009)
T3028 000:666.126 - 0.039ms returns 0x00
T3028 000:666.167 JLINK_ReadReg(R0)
T3028 000:666.206 - 0.039ms returns 0x00000000
T3028 000:666.817 JLINK_HasError()
T3028 000:666.849 JLINK_WriteReg(R0, 0x0002A000)
T3028 000:666.874 - 0.025ms returns 0
T3028 000:666.898 JLINK_WriteReg(R1, 0x00001000)
T3028 000:666.923 - 0.025ms returns 0
T3028 000:666.948 JLINK_WriteReg(R2, 0x000000FF)
T3028 000:666.971 - 0.023ms returns 0
T3028 000:666.995 JLINK_WriteReg(R3, 0x00000000)
T3028 000:667.018 - 0.023ms returns 0
T3028 000:667.042 JLINK_WriteReg(R4, 0x00000000)
T3028 000:667.065 - 0.023ms returns 0
T3028 000:667.089 JLINK_WriteReg(R5, 0x00000000)
T3028 000:667.112 - 0.023ms returns 0
T3028 000:667.136 JLINK_WriteReg(R6, 0x00000000)
T3028 000:667.160 - 0.023ms returns 0
T3028 000:667.183 JLINK_WriteReg(R7, 0x00000000)
T3028 000:667.207 - 0.023ms returns 0
T3028 000:667.231 JLINK_WriteReg(R8, 0x00000000)
T3028 000:667.254 - 0.023ms returns 0
T3028 000:667.278 JLINK_WriteReg(R9, 0x200005B4)
T3028 000:667.301 - 0.023ms returns 0
T3028 000:667.325 JLINK_WriteReg(R10, 0x00000000)
T3028 000:667.348 - 0.023ms returns 0
T3028 000:667.372 JLINK_WriteReg(R11, 0x00000000)
T3028 000:667.395 - 0.023ms returns 0
T3028 000:667.419 JLINK_WriteReg(R12, 0x00000000)
T3028 000:667.442 - 0.023ms returns 0
T3028 000:667.466 JLINK_WriteReg(R13 (SP), 0x20002000)
T3028 000:667.489 - 0.023ms returns 0
T3028 000:667.513 JLINK_WriteReg(R14, 0x20000001)
T3028 000:667.536 - 0.023ms returns 0
T3028 000:667.560 JLINK_WriteReg(R15 (PC), 0x20000288)
T3028 000:667.585 - 0.025ms returns 0
T3028 000:667.609 JLINK_WriteReg(XPSR, 0x01000000)
T3028 000:667.632 - 0.023ms returns 0
T3028 000:667.656 JLINK_WriteReg(MSP, 0x20002000)
T3028 000:667.680 - 0.024ms returns 0
T3028 000:667.704 JLINK_WriteReg(PSP, 0x20002000)
T3028 000:667.780 - 0.075ms returns 0
T3028 000:667.808 JLINK_WriteReg(CFBP, 0x00000000)
T3028 000:667.832 - 0.023ms returns 0
T3028 000:667.857 JLINK_SetBPEx(Addr = 0x20000000, Type = 0xFFFFFFF2)
T3028 000:667.881 - 0.024ms returns 0x0000000A
T3028 000:667.904 JLINK_Go()
T3028 000:667.935   CPU_ReadMem(4 bytes @ 0xE0001000)
T3028 000:672.761 - 4.855ms
T3028 000:672.839 JLINK_IsHalted()
T3028 000:677.379   CPU_ReadMem(2 bytes @ 0x20000000)
T3028 000:677.898 - 5.057ms returns TRUE
T3028 000:677.962 JLINK_ReadReg(R15 (PC))
T3028 000:677.995 - 0.032ms returns 0x20000000
T3028 000:678.025 JLINK_ClrBPEx(BPHandle = 0x0000000A)
T3028 000:678.055 - 0.029ms returns 0x00
T3028 000:678.085 JLINK_ReadReg(R0)
T3028 000:678.114 - 0.028ms returns 0x00000001
T3028 000:678.144 JLINK_HasError()
T3028 000:678.173 JLINK_WriteReg(R0, 0x0002A000)
T3028 000:678.204 - 0.030ms returns 0
T3028 000:678.235 JLINK_WriteReg(R1, 0x00001000)
T3028 000:678.264 - 0.028ms returns 0
T3028 000:678.294 JLINK_WriteReg(R2, 0x000000FF)
T3028 000:678.322 - 0.028ms returns 0
T3028 000:678.352 JLINK_WriteReg(R3, 0x00000000)
T3028 000:678.381 - 0.029ms returns 0
T3028 000:678.410 JLINK_WriteReg(R4, 0x00000000)
T3028 000:678.439 - 0.028ms returns 0
T3028 000:678.468 JLINK_WriteReg(R5, 0x00000000)
T3028 000:678.497 - 0.028ms returns 0
T3028 000:678.526 JLINK_WriteReg(R6, 0x00000000)
T3028 000:678.555 - 0.028ms returns 0
T3028 000:678.584 JLINK_WriteReg(R7, 0x00000000)
T3028 000:678.613 - 0.028ms returns 0
T3028 000:678.642 JLINK_WriteReg(R8, 0x00000000)
T3028 000:678.670 - 0.028ms returns 0
T3028 000:678.695 JLINK_WriteReg(R9, 0x200005B4)
T3028 000:678.718 - 0.023ms returns 0
T3028 000:678.744 JLINK_WriteReg(R10, 0x00000000)
T3028 000:678.767 - 0.023ms returns 0
T3028 000:678.792 JLINK_WriteReg(R11, 0x00000000)
T3028 000:678.815 - 0.023ms returns 0
T3028 000:678.839 JLINK_WriteReg(R12, 0x00000000)
T3028 000:678.864 - 0.024ms returns 0
T3028 000:678.888 JLINK_WriteReg(R13 (SP), 0x20002000)
T3028 000:678.913 - 0.024ms returns 0
T3028 000:678.947 JLINK_WriteReg(R14, 0x20000001)
T3028 000:678.973 - 0.026ms returns 0
T3028 000:678.998 JLINK_WriteReg(R15 (PC), 0x200000D4)
T3028 000:679.022 - 0.024ms returns 0
T3028 000:679.047 JLINK_WriteReg(XPSR, 0x01000000)
T3028 000:679.070 - 0.023ms returns 0
T3028 000:679.095 JLINK_WriteReg(MSP, 0x20002000)
T3028 000:679.119 - 0.023ms returns 0
T3028 000:679.143 JLINK_WriteReg(PSP, 0x20002000)
T3028 000:679.167 - 0.023ms returns 0
T3028 000:679.191 JLINK_WriteReg(CFBP, 0x00000000)
T3028 000:679.215 - 0.023ms returns 0
T3028 000:679.240 JLINK_SetBPEx(Addr = 0x20000000, Type = 0xFFFFFFF2)
T3028 000:679.264 - 0.024ms returns 0x0000000B
T3028 000:679.290 JLINK_Go()
T3028 000:679.319   CPU_ReadMem(4 bytes @ 0xE0001000)
T3028 000:684.198 - 4.908ms
T3028 000:684.281 JLINK_IsHalted()
T3028 000:684.778 - 0.497ms returns FALSE
T3028 000:684.830 JLINK_HasError()
T3028 000:688.922 JLINK_IsHalted()
T3028 000:731.774   CPU_ReadMem(2 bytes @ 0x20000000)
T3028 000:732.295 - 43.372ms returns TRUE
T3028 000:732.346 JLINK_ReadReg(R15 (PC))
T3028 000:732.375 - 0.029ms returns 0x20000000
T3028 000:732.401 JLINK_ClrBPEx(BPHandle = 0x0000000B)
T3028 000:732.425 - 0.024ms returns 0x00
T3028 000:732.451 JLINK_ReadReg(R0)
T3028 000:732.474 - 0.023ms returns 0x00000000
T3028 000:732.962 JLINK_HasError()
T3028 000:732.995 JLINK_WriteReg(R0, 0x0002B000)
T3028 000:733.020 - 0.025ms returns 0
T3028 000:733.044 JLINK_WriteReg(R1, 0x00001000)
T3028 000:733.068 - 0.023ms returns 0
T3028 000:733.092 JLINK_WriteReg(R2, 0x000000FF)
T3028 000:733.115 - 0.023ms returns 0
T3028 000:733.139 JLINK_WriteReg(R3, 0x00000000)
T3028 000:733.162 - 0.023ms returns 0
T3028 000:733.186 JLINK_WriteReg(R4, 0x00000000)
T3028 000:733.209 - 0.023ms returns 0
T3028 000:733.233 JLINK_WriteReg(R5, 0x00000000)
T3028 000:733.257 - 0.023ms returns 0
T3028 000:733.281 JLINK_WriteReg(R6, 0x00000000)
T3028 000:733.304 - 0.023ms returns 0
T3028 000:733.328 JLINK_WriteReg(R7, 0x00000000)
T3028 000:733.351 - 0.023ms returns 0
T3028 000:733.439 JLINK_WriteReg(R8, 0x00000000)
T3028 000:733.463 - 0.024ms returns 0
T3028 000:733.487 JLINK_WriteReg(R9, 0x200005B4)
T3028 000:733.511 - 0.023ms returns 0
T3028 000:733.535 JLINK_WriteReg(R10, 0x00000000)
T3028 000:733.558 - 0.023ms returns 0
T3028 000:733.582 JLINK_WriteReg(R11, 0x00000000)
T3028 000:733.605 - 0.023ms returns 0
T3028 000:733.629 JLINK_WriteReg(R12, 0x00000000)
T3028 000:733.653 - 0.023ms returns 0
T3028 000:733.677 JLINK_WriteReg(R13 (SP), 0x20002000)
T3028 000:733.700 - 0.023ms returns 0
T3028 000:733.724 JLINK_WriteReg(R14, 0x20000001)
T3028 000:733.748 - 0.023ms returns 0
T3028 000:733.772 JLINK_WriteReg(R15 (PC), 0x20000288)
T3028 000:733.795 - 0.023ms returns 0
T3028 000:733.819 JLINK_WriteReg(XPSR, 0x01000000)
T3028 000:733.843 - 0.023ms returns 0
T3028 000:733.867 JLINK_WriteReg(MSP, 0x20002000)
T3028 000:733.890 - 0.023ms returns 0
T3028 000:733.914 JLINK_WriteReg(PSP, 0x20002000)
T3028 000:733.941 - 0.026ms returns 0
T3028 000:733.965 JLINK_WriteReg(CFBP, 0x00000000)
T3028 000:733.988 - 0.023ms returns 0
T3028 000:734.013 JLINK_SetBPEx(Addr = 0x20000000, Type = 0xFFFFFFF2)
T3028 000:734.038 - 0.024ms returns 0x0000000C
T3028 000:734.062 JLINK_Go()
T3028 000:734.092   CPU_ReadMem(4 bytes @ 0xE0001000)
T3028 000:738.913 - 4.850ms
T3028 000:738.993 JLINK_IsHalted()
T3028 000:743.523   CPU_ReadMem(2 bytes @ 0x20000000)
T3028 000:744.002 - 5.008ms returns TRUE
T3028 000:744.050 JLINK_ReadReg(R15 (PC))
T3028 000:744.078 - 0.027ms returns 0x20000000
T3028 000:744.103 JLINK_ClrBPEx(BPHandle = 0x0000000C)
T3028 000:744.127 - 0.024ms returns 0x00
T3028 000:744.152 JLINK_ReadReg(R0)
T3028 000:744.175 - 0.023ms returns 0x00000001
T3028 000:744.200 JLINK_HasError()
T3028 000:744.225 JLINK_WriteReg(R0, 0x0002B000)
T3028 000:744.249 - 0.023ms returns 0
T3028 000:744.273 JLINK_WriteReg(R1, 0x00001000)
T3028 000:744.296 - 0.023ms returns 0
T3028 000:744.320 JLINK_WriteReg(R2, 0x000000FF)
T3028 000:744.344 - 0.023ms returns 0
T3028 000:744.368 JLINK_WriteReg(R3, 0x00000000)
T3028 000:744.391 - 0.023ms returns 0
T3028 000:744.415 JLINK_WriteReg(R4, 0x00000000)
T3028 000:744.438 - 0.023ms returns 0
T3028 000:744.462 JLINK_WriteReg(R5, 0x00000000)
T3028 000:744.485 - 0.023ms returns 0
T3028 000:744.509 JLINK_WriteReg(R6, 0x00000000)
T3028 000:744.532 - 0.023ms returns 0
T3028 000:744.556 JLINK_WriteReg(R7, 0x00000000)
T3028 000:744.579 - 0.023ms returns 0
T3028 000:744.603 JLINK_WriteReg(R8, 0x00000000)
T3028 000:744.627 - 0.023ms returns 0
T3028 000:744.651 JLINK_WriteReg(R9, 0x200005B4)
T3028 000:744.674 - 0.023ms returns 0
T3028 000:744.698 JLINK_WriteReg(R10, 0x00000000)
T3028 000:744.721 - 0.023ms returns 0
T3028 000:744.745 JLINK_WriteReg(R11, 0x00000000)
T3028 000:744.768 - 0.023ms returns 0
T3028 000:744.792 JLINK_WriteReg(R12, 0x00000000)
T3028 000:744.815 - 0.023ms returns 0
T3028 000:744.839 JLINK_WriteReg(R13 (SP), 0x20002000)
T3028 000:744.862 - 0.023ms returns 0
T3028 000:744.886 JLINK_WriteReg(R14, 0x20000001)
T3028 000:744.910 - 0.023ms returns 0
T3028 000:744.935 JLINK_WriteReg(R15 (PC), 0x200000D4)
T3028 000:744.958 - 0.023ms returns 0
T3028 000:744.982 JLINK_WriteReg(XPSR, 0x01000000)
T3028 000:745.005 - 0.023ms returns 0
T3028 000:745.029 JLINK_WriteReg(MSP, 0x20002000)
T3028 000:745.053 - 0.023ms returns 0
T3028 000:745.076 JLINK_WriteReg(PSP, 0x20002000)
T3028 000:745.100 - 0.023ms returns 0
T3028 000:745.123 JLINK_WriteReg(CFBP, 0x00000000)
T3028 000:745.147 - 0.023ms returns 0
T3028 000:745.171 JLINK_SetBPEx(Addr = 0x20000000, Type = 0xFFFFFFF2)
T3028 000:745.195 - 0.024ms returns 0x0000000D
T3028 000:745.218 JLINK_Go()
T3028 000:745.247   CPU_ReadMem(4 bytes @ 0xE0001000)
T3028 000:750.023 - 4.803ms
T3028 000:750.070 JLINK_IsHalted()
T3028 000:750.518 - 0.448ms returns FALSE
T3028 000:750.564 JLINK_HasError()
T3028 000:755.936 JLINK_IsHalted()
T3028 000:760.521   CPU_ReadMem(2 bytes @ 0x20000000)
T3028 000:761.048 - 5.111ms returns TRUE
T3028 000:761.108 JLINK_ReadReg(R15 (PC))
T3028 000:761.207 - 0.098ms returns 0x20000000
T3028 000:761.244 JLINK_ClrBPEx(BPHandle = 0x0000000D)
T3028 000:761.273 - 0.029ms returns 0x00
T3028 000:761.304 JLINK_ReadReg(R0)
T3028 000:761.334 - 0.029ms returns 0x00000000
T3028 000:761.666 JLINK_HasError()
T3028 000:761.705 JLINK_WriteReg(R0, 0x00000001)
T3028 000:761.735 - 0.030ms returns 0
T3028 000:761.767 JLINK_WriteReg(R1, 0x00001000)
T3028 000:761.796 - 0.029ms returns 0
T3028 000:761.826 JLINK_WriteReg(R2, 0x000000FF)
T3028 000:761.850 - 0.023ms returns 0
T3028 000:761.874 JLINK_WriteReg(R3, 0x00000000)
T3028 000:761.897 - 0.023ms returns 0
T3028 000:761.921 JLINK_WriteReg(R4, 0x00000000)
T3028 000:761.946 - 0.024ms returns 0
T3028 000:761.970 JLINK_WriteReg(R5, 0x00000000)
T3028 000:761.993 - 0.023ms returns 0
T3028 000:762.017 JLINK_WriteReg(R6, 0x00000000)
T3028 000:762.040 - 0.023ms returns 0
T3028 000:762.064 JLINK_WriteReg(R7, 0x00000000)
T3028 000:762.087 - 0.023ms returns 0
T3028 000:762.111 JLINK_WriteReg(R8, 0x00000000)
T3028 000:762.134 - 0.023ms returns 0
T3028 000:762.158 JLINK_WriteReg(R9, 0x200005B4)
T3028 000:762.181 - 0.023ms returns 0
T3028 000:762.205 JLINK_WriteReg(R10, 0x00000000)
T3028 000:762.229 - 0.023ms returns 0
T3028 000:762.253 JLINK_WriteReg(R11, 0x00000000)
T3028 000:762.276 - 0.023ms returns 0
T3028 000:762.300 JLINK_WriteReg(R12, 0x00000000)
T3028 000:762.323 - 0.023ms returns 0
T3028 000:762.347 JLINK_WriteReg(R13 (SP), 0x20002000)
T3028 000:762.370 - 0.023ms returns 0
T3028 000:762.394 JLINK_WriteReg(R14, 0x20000001)
T3028 000:762.418 - 0.023ms returns 0
T3028 000:762.442 JLINK_WriteReg(R15 (PC), 0x20000060)
T3028 000:762.465 - 0.023ms returns 0
T3028 000:762.489 JLINK_WriteReg(XPSR, 0x01000000)
T3028 000:762.512 - 0.023ms returns 0
T3028 000:762.536 JLINK_WriteReg(MSP, 0x20002000)
T3028 000:762.559 - 0.023ms returns 0
T3028 000:762.583 JLINK_WriteReg(PSP, 0x20002000)
T3028 000:762.606 - 0.023ms returns 0
T3028 000:762.630 JLINK_WriteReg(CFBP, 0x00000000)
T3028 000:762.653 - 0.023ms returns 0
T3028 000:762.677 JLINK_SetBPEx(Addr = 0x20000000, Type = 0xFFFFFFF2)
T3028 000:762.701 - 0.024ms returns 0x0000000E
T3028 000:762.725 JLINK_Go()
T3028 000:762.755   CPU_ReadMem(4 bytes @ 0xE0001000)
T3028 000:767.566 - 4.841ms
T3028 000:767.615 JLINK_IsHalted()
T3028 000:772.082   CPU_ReadMem(2 bytes @ 0x20000000)
T3028 000:772.592 - 4.976ms returns TRUE
T3028 000:772.660 JLINK_ReadReg(R15 (PC))
T3028 000:772.700 - 0.039ms returns 0x20000000
T3028 000:772.737 JLINK_ClrBPEx(BPHandle = 0x0000000E)
T3028 000:772.772 - 0.035ms returns 0x00
T3028 000:772.808 JLINK_ReadReg(R0)
T3028 000:772.846 - 0.037ms returns 0x00000000
T3028 000:832.350 JLINK_WriteMem(0x20000000, 0x5B8 Bytes, ...)
T3028 000:832.397   Data:  00 BE 0A E0 0D 78 2D 06 68 40 08 24 40 00 00 D3 ...
T3028 000:832.459   CPU_WriteMem(1464 bytes @ 0x20000000)
T3028 000:846.914 - 14.565ms returns 0x5B8
T3028 000:847.044 JLINK_HasError()
T3028 000:847.093 JLINK_WriteReg(R0, 0x00000000)
T3028 000:847.136 - 0.044ms returns 0
T3028 000:847.177 JLINK_WriteReg(R1, 0x03D09000)
T3028 000:847.217 - 0.039ms returns 0
T3028 000:847.257 JLINK_WriteReg(R2, 0x00000002)
T3028 000:847.295 - 0.038ms returns 0
T3028 000:847.335 JLINK_WriteReg(R3, 0x00000000)
T3028 000:847.373 - 0.038ms returns 0
T3028 000:847.413 JLINK_WriteReg(R4, 0x00000000)
T3028 000:847.452 - 0.038ms returns 0
T3028 000:847.492 JLINK_WriteReg(R5, 0x00000000)
T3028 000:847.530 - 0.038ms returns 0
T3028 000:847.570 JLINK_WriteReg(R6, 0x00000000)
T3028 000:847.609 - 0.038ms returns 0
T3028 000:847.649 JLINK_WriteReg(R7, 0x00000000)
T3028 000:847.687 - 0.038ms returns 0
T3028 000:847.727 JLINK_WriteReg(R8, 0x00000000)
T3028 000:847.766 - 0.038ms returns 0
T3028 000:847.805 JLINK_WriteReg(R9, 0x200005B4)
T3028 000:847.844 - 0.038ms returns 0
T3028 000:847.884 JLINK_WriteReg(R10, 0x00000000)
T3028 000:847.922 - 0.038ms returns 0
T3028 000:847.964 JLINK_WriteReg(R11, 0x00000000)
T3028 000:848.002 - 0.038ms returns 0
T3028 000:848.039 JLINK_WriteReg(R12, 0x00000000)
T3028 000:848.144 - 0.105ms returns 0
T3028 000:848.178 JLINK_WriteReg(R13 (SP), 0x20002000)
T3028 000:848.211 - 0.032ms returns 0
T3028 000:848.244 JLINK_WriteReg(R14, 0x20000001)
T3028 000:848.276 - 0.032ms returns 0
T3028 000:848.309 JLINK_WriteReg(R15 (PC), 0x20000020)
T3028 000:848.340 - 0.032ms returns 0
T3028 000:848.373 JLINK_WriteReg(XPSR, 0x01000000)
T3028 000:848.405 - 0.032ms returns 0
T3028 000:848.438 JLINK_WriteReg(MSP, 0x20002000)
T3028 000:848.470 - 0.031ms returns 0
T3028 000:848.503 JLINK_WriteReg(PSP, 0x20002000)
T3028 000:848.535 - 0.031ms returns 0
T3028 000:848.568 JLINK_WriteReg(CFBP, 0x00000000)
T3028 000:848.599 - 0.031ms returns 0
T3028 000:848.633 JLINK_SetBPEx(Addr = 0x20000000, Type = 0xFFFFFFF2)
T3028 000:848.671   CPU_ReadMem(2 bytes @ 0x20000000)
T3028 000:849.211 - 0.577ms returns 0x0000000F
T3028 000:849.283 JLINK_Go()
T3028 000:849.322   CPU_WriteMem(2 bytes @ 0x20000000)
T3028 000:849.868   CPU_ReadMem(4 bytes @ 0xE0001000)
T3028 000:854.863 - 5.579ms
T3028 000:854.949 JLINK_IsHalted()
T3028 000:859.488   CPU_ReadMem(2 bytes @ 0x20000000)
T3028 000:860.024 - 5.075ms returns TRUE
T3028 000:860.089 JLINK_ReadReg(R15 (PC))
T3028 000:860.127 - 0.037ms returns 0x20000000
T3028 000:860.161 JLINK_ClrBPEx(BPHandle = 0x0000000F)
T3028 000:860.194 - 0.032ms returns 0x00
T3028 000:860.227 JLINK_ReadReg(R0)
T3028 000:860.259 - 0.032ms returns 0x00000000
T3028 000:860.655 JLINK_WriteMem(0x200005C8, 0xA38 Bytes, ...)
T3028 000:860.696   Data:  E8 57 00 20 15 63 02 00 1D 63 02 00 1F 63 02 00 ...
T3028 000:860.753   CPU_WriteMem(2616 bytes @ 0x200005C8)
T3028 000:885.884 - 25.229ms returns 0xA38
T3028 000:885.976 JLINK_WriteMem(0x20001000, 0x5C8 Bytes, ...)
T3028 000:886.026   Data:  04 2E 04 D0 05 2E 02 D0 06 29 07 D0 19 E0 D4 F8 ...
T3028 000:886.099   CPU_WriteMem(1480 bytes @ 0x20001000)
